time	V(vout)	I(L1)
0.000000000000000e+00	7.127994e-10	4.949996e-11
1.000000000000000e-08	7.127994e-10	4.949997e-11
1.002146389990399e-08	7.127994e-10	2.674377e-11
1.006439169971198e-08	7.127992e-10	-6.700897e-11
1.009105742897564e-08	7.127989e-10	-1.872620e-10
1.011798244601864e-08	7.127983e-10	-4.142103e-10
1.015530325822500e-08	7.127962e-10	-9.507145e-10
1.020442771003743e-08	7.127903e-10	-2.154137e-09
1.027093579503662e-08	7.127726e-10	-4.949856e-09
1.035791113648546e-08	7.127198e-10	-1.125302e-08
1.047456102208769e-08	7.125583e-10	-2.583014e-08
1.062880740917186e-08	7.120686e-10	-5.908432e-08
1.083630646620499e-08	7.105523e-10	-1.361942e-07
1.111429698673356e-08	7.058495e-10	-3.141741e-07
1.149219663423312e-08	6.909667e-10	-7.304670e-07
1.200833500767805e-08	6.432203e-10	-1.707307e-06
1.272600640918570e-08	5.189513e-10	-3.765665e-06
1.313299459231883e-08	4.062125e-10	-5.351955e-06
1.341057798862657e-08	2.970465e-10	-6.693826e-06
1.370363477010507e-08	1.499950e-10	-8.299876e-06
1.400346151105181e-08	-4.359135e-11	-1.010572e-05
1.460311499294528e-08	-5.479616e-10	-1.400089e-05
1.525709022824130e-08	-1.278225e-09	-1.850288e-05
1.614107525800890e-08	-2.527005e-09	-2.484259e-05
1.653516923824192e-08	-3.190118e-09	-2.767476e-05
1.685638096195047e-08	-3.798990e-09	-2.975964e-05
1.707248637457379e-08	-4.231364e-09	-3.058512e-05
1.727371607801050e-08	-4.642362e-09	-3.051751e-05
1.732409902517938e-08	-4.744692e-09	-3.022100e-05
1.737237831277191e-08	-4.841302e-09	-2.968936e-05
1.740290480770783e-08	-4.901507e-09	-2.925918e-05
1.741980351574549e-08	-4.934398e-09	-2.898169e-05
1.743143422817256e-08	-4.956816e-09	-2.877317e-05
1.744029363904960e-08	-4.973767e-09	-2.860502e-05
1.744963698600308e-08	-4.991528e-09	-2.841950e-05
1.745837988726597e-08	-5.008034e-09	-2.823830e-05
1.746945972418836e-08	-5.028777e-09	-2.799735e-05
1.748449657352195e-08	-5.056602e-09	-2.765026e-05
1.750698329357058e-08	-5.097391e-09	-2.708432e-05
1.754664786527721e-08	-5.166549e-09	-2.594381e-05
1.761813126387843e-08	-5.279509e-09	-2.339615e-05
1.776109806108086e-08	-5.441750e-09	-1.630345e-05
1.804703165548573e-08	-5.445417e-09	4.932661e-06
1.848414478370271e-08	-4.439019e-09	5.252965e-05
1.899674417248114e-08	-1.344075e-09	1.272554e-04
1.946658639761503e-08	3.973883e-09	2.098157e-04
2.000000000000000e-08	1.243344e-08	3.121308e-04
2.005334136023850e-08	1.359450e-08	3.229105e-04
2.016002408071549e-08	1.603253e-08	3.445989e-04
2.037338952166948e-08	2.148250e-08	3.885920e-04
2.080012040357746e-08	3.479398e-08	4.790161e-04
2.165358216739342e-08	6.856902e-08	6.666977e-04
2.246692402896072e-08	1.084693e-07	8.523639e-04
2.291162062698826e-08	1.342092e-07	9.568417e-04
2.310451690222837e-08	1.465716e-07	1.002784e-03
2.323835155807685e-08	1.556480e-07	1.034768e-03
2.340609394990353e-08	1.675008e-07	1.074887e-03
2.362516443896035e-08	1.836543e-07	1.127312e-03
2.387576813876613e-08	2.030678e-07	1.187311e-03
2.417352819439985e-08	2.274785e-07	1.258630e-03
2.453702242554667e-08	2.592081e-07	1.345724e-03
2.495497277452923e-08	2.982993e-07	1.445894e-03
2.543813790168328e-08	3.469944e-07	1.561723e-03
2.598904132938544e-08	4.071743e-07	1.693817e-03
2.665294821176261e-08	4.859706e-07	1.853034e-03
2.731881961376317e-08	5.728864e-07	2.012746e-03
2.840106800665660e-08	7.289862e-07	2.272360e-03
2.941782459325950e-08	8.951463e-07	2.516292e-03
3.145133776646530e-08	1.276892e-06	3.004205e-03
3.339732543697026e-08	1.711374e-06	3.471157e-03
3.728930077798019e-08	2.773997e-06	4.405130e-03
4.185994503132365e-08	4.379279e-06	5.502021e-03
5.100123353801057e-08	8.614147e-06	7.695875e-03
6.141486608972079e-08	1.515048e-05	1.019512e-02
7.839776957387997e-08	2.986690e-05	1.427097e-02
1.015924345180700e-07	5.896051e-05	1.983761e-02
1.479817644064501e-07	1.504071e-04	3.097078e-02
2.407604241832103e-07	4.622866e-04	5.323657e-02
4.263177437367307e-07	1.601539e-03	9.776501e-02
7.974323828437716e-07	5.938238e-03	1.868022e-01
1.539661661057853e-06	2.139277e-02	3.647783e-01
2.539661661057853e-06	5.454180e-02	6.043078e-01
3.539661661057853e-06	1.004043e-01	8.434978e-01
4.020000000000000e-06	1.271917e-01	9.582365e-01
4.059323322115706e-06	1.296309e-01	9.676205e-01
4.137969966347120e-06	1.347415e-01	9.863788e-01
4.295263254809947e-06	1.453241e-01	1.023879e+00
4.609849831735600e-06	1.671757e-01	1.098848e+00
4.619849831735600e-06	1.678899e-01	1.101230e+00
4.639849831735600e-06	1.693481e-01	1.105993e+00
4.679849831735600e-06	1.722878e-01	1.115517e+00
4.860000000000001e-06	1.857849e-01	1.158401e+00
4.890000000000001e-06	1.880821e-01	1.165540e+00
4.930000000000000e-06	1.911662e-01	1.175057e+00
4.980000000000000e-06	1.950574e-01	1.186952e+00
5.000000000000000e-06	1.966247e-01	1.191709e+00
5.009999999999999e-06	1.974108e-01	1.194088e+00
5.019999999999999e-06	1.981981e-01	1.196466e+00
5.020413139186675e-06	1.982307e-01	1.196564e+00
5.021239417560025e-06	1.982958e-01	1.196761e+00
5.022473790621736e-06	1.983932e-01	1.197055e+00
5.023779160024441e-06	1.984962e-01	1.197365e+00
5.025743544873395e-06	1.986512e-01	1.197833e+00
5.027411438231976e-06	1.987829e-01	1.198229e+00
5.027907531884627e-06	1.988221e-01	1.198347e+00
5.028899719189929e-06	1.989004e-01	1.198584e+00
5.029066460544769e-06	1.989136e-01	1.198623e+00
5.029399943254449e-06	1.989399e-01	1.198703e+00
5.029999999999999e-06	1.989873e-01	1.198846e+00
5.030060005674554e-06	1.989921e-01	1.198860e+00
5.030180017023664e-06	1.990016e-01	1.198888e+00
5.030420039721884e-06	1.990205e-01	1.198946e+00
5.030696436149222e-06	1.990424e-01	1.199011e+00
5.030956764037979e-06	1.990629e-01	1.199073e+00
5.031477419815494e-06	1.991041e-01	1.199197e+00
5.031774988550215e-06	1.991276e-01	1.199268e+00
5.032000499337928e-06	1.991454e-01	1.199322e+00
5.032234630176719e-06	1.991639e-01	1.199378e+00
5.032478707476294e-06	1.991832e-01	1.199436e+00
5.032966862075445e-06	1.992218e-01	1.199551e+00
5.033882456304769e-06	1.992942e-01	1.199768e+00
5.034958863822623e-06	1.993793e-01	1.200020e+00
5.036547747870109e-06	1.995050e-01	1.200386e+00
5.038583612394807e-06	1.996661e-01	1.200840e+00
5.040623001879951e-06	1.998275e-01	1.201263e+00
5.043016464419633e-06	2.000170e-01	1.201692e+00
5.044916758824323e-06	2.001674e-01	1.201944e+00
5.047043116856778e-06	2.003359e-01	1.202115e+00
5.048002177699473e-06	2.004118e-01	1.202148e+00
5.048554845745861e-06	2.004556e-01	1.202148e+00
5.048577894076611e-06	2.004575e-01	1.202148e+00
5.048623990738113e-06	2.004611e-01	1.202147e+00
5.048716184061117e-06	2.004684e-01	1.202146e+00
5.048900570707124e-06	2.004830e-01	1.202143e+00
5.049224832763058e-06	2.005087e-01	1.202138e+00
5.049706222154306e-06	2.005468e-01	1.202130e+00
5.050646020582285e-06	2.006213e-01	1.202114e+00
5.052085875018405e-06	2.007353e-01	1.202090e+00
5.053484171425459e-06	2.008461e-01	1.202066e+00
5.054806080005844e-06	2.009508e-01	1.202044e+00
5.056224141823239e-06	2.010631e-01	1.202019e+00
5.057601429540633e-06	2.011722e-01	1.201995e+00
5.059017788217302e-06	2.012844e-01	1.201970e+00
5.060397314000257e-06	2.013936e-01	1.201946e+00
5.061808126338486e-06	2.015053e-01	1.201921e+00
5.063207439805944e-06	2.016162e-01	1.201897e+00
5.064628694398088e-06	2.017287e-01	1.201872e+00
5.066060843653893e-06	2.018421e-01	1.201846e+00
5.067503206399580e-06	2.019563e-01	1.201821e+00
5.068998881760341e-06	2.020748e-01	1.201795e+00
5.070745865966558e-06	2.022131e-01	1.201764e+00
5.072850807014148e-06	2.023798e-01	1.201726e+00
5.075552217925291e-06	2.025937e-01	1.201678e+00
5.079301201351905e-06	2.028905e-01	1.201612e+00
5.084644985499912e-06	2.033135e-01	1.201516e+00
5.094184096116494e-06	2.040685e-01	1.201346e+00
5.112307299616465e-06	2.055025e-01	1.201021e+00
5.135661915361484e-06	2.073497e-01	1.200602e+00
5.165282791249106e-06	2.096913e-01	1.200070e+00
5.204390692282592e-06	2.127804e-01	1.199366e+00
5.268774844384494e-06	2.178596e-01	1.198204e+00
6.130434017622123e-06	2.850415e-01	1.182323e+00
8.115187358465127e-06	4.354891e-01	1.144017e+00
9.020000000000000e-06	5.023630e-01	1.125898e+00
9.040000000000000e-06	5.038170e-01	1.125488e+00
9.649999999999999e-06	5.478466e-01	1.112892e+00
9.999999999999980e-06	5.728207e-01	1.105565e+00
1.001000000000000e-05	5.735312e-01	1.105354e+00
1.001004399997175e-05	5.735344e-01	1.105353e+00
1.001013199991525e-05	5.735406e-01	1.105352e+00
1.001023552837014e-05	5.735480e-01	1.105349e+00
1.001033571190351e-05	5.735551e-01	1.105347e+00
1.001053607897026e-05	5.735693e-01	1.105343e+00
1.001093681310374e-05	5.735978e-01	1.105335e+00
1.001161653192763e-05	5.736461e-01	1.105320e+00
1.001256853375747e-05	5.737137e-01	1.105300e+00
1.001392922601220e-05	5.738103e-01	1.105271e+00
1.001578388993157e-05	5.739421e-01	1.105231e+00
1.001690523433870e-05	5.740217e-01	1.105211e+00
1.001775731118574e-05	5.740822e-01	1.105209e+00
1.001849025603046e-05	5.741343e-01	1.105230e+00
1.001914388435831e-05	5.741807e-01	1.105273e+00
1.001943227665316e-05	5.742012e-01	1.105303e+00
1.001951409647746e-05	5.742070e-01	1.105314e+00
1.001956423300596e-05	5.742106e-01	1.105322e+00
1.001961354307569e-05	5.742140e-01	1.105330e+00
1.001968050252569e-05	5.742188e-01	1.105342e+00
1.001974200253475e-05	5.742232e-01	1.105353e+00
1.001981511725028e-05	5.742284e-01	1.105366e+00
1.001990013634162e-05	5.742344e-01	1.105381e+00
1.001990197355841e-05	5.742345e-01	1.105382e+00
1.001990564799198e-05	5.742348e-01	1.105382e+00
1.001990732376365e-05	5.742349e-01	1.105383e+00
1.001990972535303e-05	5.742351e-01	1.105383e+00
1.001991405070513e-05	5.742354e-01	1.105384e+00
1.001991936815401e-05	5.742358e-01	1.105385e+00
1.001993000305178e-05	5.742365e-01	1.105387e+00
1.001995127284732e-05	5.742381e-01	1.105391e+00
1.001996983553215e-05	5.742394e-01	1.105394e+00
1.001997524975356e-05	5.742397e-01	1.105395e+00
1.001998607819638e-05	5.742405e-01	1.105397e+00
1.002000000000000e-05	5.742415e-01	1.105400e+00
1.002000139218036e-05	5.742416e-01	1.105400e+00
1.002000417654109e-05	5.742418e-01	1.105401e+00
1.002000974526254e-05	5.742422e-01	1.105402e+00
1.002004315759123e-05	5.742446e-01	1.105408e+00
1.002008770736281e-05	5.742477e-01	1.105417e+00
1.002017680690598e-05	5.742541e-01	1.105433e+00
1.002035500599233e-05	5.742667e-01	1.105468e+00
1.002071140416502e-05	5.742921e-01	1.105539e+00
1.002142420051041e-05	5.743427e-01	1.105687e+00
1.002226201595427e-05	5.744022e-01	1.105867e+00
1.002296083079003e-05	5.744519e-01	1.106024e+00
1.002330443376725e-05	5.744763e-01	1.106102e+00
1.002356351530658e-05	5.744947e-01	1.106163e+00
1.002371666921504e-05	5.745056e-01	1.106198e+00
1.002390644277871e-05	5.745191e-01	1.106242e+00
1.002428532918920e-05	5.745460e-01	1.106331e+00
1.002472610356988e-05	5.745774e-01	1.106434e+00
1.002516250886979e-05	5.746084e-01	1.106536e+00
1.002580753595908e-05	5.746543e-01	1.106686e+00
1.002649584458249e-05	5.747032e-01	1.106847e+00
1.002740203153538e-05	5.747677e-01	1.107059e+00
1.002838207565963e-05	5.748374e-01	1.107288e+00
1.002965682931936e-05	5.749282e-01	1.107587e+00
1.003104879012317e-05	5.750272e-01	1.107912e+00
1.003330468649688e-05	5.751879e-01	1.108440e+00
1.003544959584628e-05	5.753407e-01	1.108942e+00
1.003973941454509e-05	5.756466e-01	1.109946e+00
1.004427838787767e-05	5.759706e-01	1.111009e+00
1.005335633454282e-05	5.766197e-01	1.113133e+00
1.006534058898670e-05	5.774786e-01	1.115938e+00
1.008420341205123e-05	5.788354e-01	1.120353e+00
1.011197213807997e-05	5.808448e-01	1.126852e+00
1.016750959013747e-05	5.849088e-01	1.139847e+00
1.027858449425246e-05	5.932131e-01	1.165828e+00
1.050073430248244e-05	6.105261e-01	1.217753e+00
1.094503391894241e-05	6.479591e-01	1.321440e+00
1.183363315186234e-05	7.313958e-01	1.528272e+00
1.283363315186234e-05	8.377963e-01	1.760154e+00
1.383363315186234e-05	9.556760e-01	1.991165e+00
1.402000000000000e-05	9.794131e-01	2.034070e+00
1.439273369627531e-05	1.029047e+00	2.119692e+00
1.440273369627531e-05	1.030401e+00	2.121987e+00
1.442273369627531e-05	1.033140e+00	2.126574e+00
1.446273369627531e-05	1.038640e+00	2.135746e+00
1.454273369627531e-05	1.049728e+00	2.154082e+00
1.470273369627531e-05	1.072073e+00	2.190737e+00
1.473273369627531e-05	1.076309e+00	2.197605e+00
1.485273369627531e-05	1.093397e+00	2.225065e+00
1.487453260744939e-05	1.096523e+00	2.230050e+00
1.496172825214570e-05	1.109100e+00	2.249987e+00
1.497172825214570e-05	1.110547e+00	2.252273e+00
1.499172825214570e-05	1.113451e+00	2.256844e+00
1.500172825214570e-05	1.114904e+00	2.259129e+00
1.501000000000000e-05	1.116107e+00	2.261019e+00
1.502000000000000e-05	1.117564e+00	2.263304e+00
1.502078515755160e-05	1.117678e+00	2.263484e+00
1.502235547265479e-05	1.117907e+00	2.263842e+00
1.502549610286118e-05	1.118365e+00	2.264560e+00
1.502699009740933e-05	1.118582e+00	2.264901e+00
1.502701201090370e-05	1.118586e+00	2.264906e+00
1.502705583789243e-05	1.118592e+00	2.264916e+00
1.502714349186989e-05	1.118605e+00	2.264936e+00
1.502731879982481e-05	1.118630e+00	2.264977e+00
1.502766941573465e-05	1.118682e+00	2.265057e+00
1.502837064755433e-05	1.118784e+00	2.265217e+00
1.502859753636064e-05	1.118817e+00	2.265269e+00
1.502905131397325e-05	1.118883e+00	2.265373e+00
1.502909244477477e-05	1.118889e+00	2.265382e+00
1.502917470637782e-05	1.118901e+00	2.265401e+00
1.502933922958392e-05	1.118925e+00	2.265438e+00
1.502966827599610e-05	1.118973e+00	2.265513e+00
1.503000000000000e-05	1.119021e+00	2.265589e+00
1.503003317240039e-05	1.119026e+00	2.265597e+00
1.503009951720117e-05	1.119036e+00	2.265612e+00
1.503023220680273e-05	1.119055e+00	2.265642e+00
1.503049758600585e-05	1.119094e+00	2.265703e+00
1.503096752710106e-05	1.119163e+00	2.265810e+00
1.503134191782010e-05	1.119217e+00	2.265895e+00
1.503174398656960e-05	1.119276e+00	2.265986e+00
1.503214353835281e-05	1.119334e+00	2.266075e+00
1.503265253914953e-05	1.119408e+00	2.266188e+00
1.503320020873208e-05	1.119488e+00	2.266307e+00
1.503429554789717e-05	1.119648e+00	2.266535e+00
1.503595770967975e-05	1.119891e+00	2.266859e+00
1.503716366897956e-05	1.120067e+00	2.267066e+00
1.503825403671618e-05	1.120226e+00	2.267211e+00
1.503908823370765e-05	1.120348e+00	2.267284e+00
1.503974954314773e-05	1.120444e+00	2.267313e+00
1.504008917441830e-05	1.120494e+00	2.267316e+00
1.504027827054268e-05	1.120521e+00	2.267314e+00
1.504041595074852e-05	1.120541e+00	2.267311e+00
1.504054980884168e-05	1.120561e+00	2.267307e+00
1.504074109792227e-05	1.120589e+00	2.267302e+00
1.504094086601352e-05	1.120618e+00	2.267295e+00
1.504134040219601e-05	1.120676e+00	2.267283e+00
1.504204032631371e-05	1.120778e+00	2.267261e+00
1.504344017454913e-05	1.120983e+00	2.267215e+00
1.504483429603489e-05	1.121186e+00	2.267170e+00
1.504614117251341e-05	1.121377e+00	2.267128e+00
1.504757234173642e-05	1.121586e+00	2.267081e+00
1.504892465501322e-05	1.121783e+00	2.267036e+00
1.505035724094410e-05	1.121992e+00	2.266989e+00
1.505184796649397e-05	1.122210e+00	2.266940e+00
1.505357759366418e-05	1.122462e+00	2.266882e+00
1.505570671589128e-05	1.122773e+00	2.266812e+00
1.505849732894351e-05	1.123180e+00	2.266719e+00
1.506219666616459e-05	1.123720e+00	2.266596e+00
1.506801907953786e-05	1.124569e+00	2.266402e+00
1.507748383614331e-05	1.125950e+00	2.266086e+00
1.509641334935420e-05	1.128710e+00	2.265453e+00
1.511451795668589e-05	1.131350e+00	2.264846e+00
1.514164847852718e-05	1.135303e+00	2.263935e+00
1.517175679350280e-05	1.139687e+00	2.262924e+00
1.522705275419358e-05	1.147730e+00	2.261062e+00
1.530655582421526e-05	1.159277e+00	2.258378e+00
1.546556196425863e-05	1.182298e+00	2.252978e+00
1.578357424434536e-05	1.228061e+00	2.242062e+00
1.841959880451882e-05	1.596291e+00	2.147163e+00
1.901000000000000e-05	1.676352e+00	2.124992e+00
1.902000000000000e-05	1.677696e+00	2.124612e+00
1.904000000000000e-05	1.680372e+00	2.123847e+00
1.908000000000000e-05	1.685720e+00	2.122318e+00
1.916000000000000e-05	1.696397e+00	2.119252e+00
1.932000000000000e-05	1.717674e+00	2.113094e+00
1.964000000000000e-05	1.760084e+00	2.100727e+00
1.965000000000000e-05	1.761405e+00	2.100339e+00
1.967000000000000e-05	1.764042e+00	2.099561e+00
1.971000000000000e-05	1.769309e+00	2.098004e+00
1.985000000000000e-05	1.787713e+00	2.092542e+00
1.988999999999999e-05	1.792960e+00	2.090978e+00
1.993000000000001e-05	1.798203e+00	2.089412e+00
1.994000000000002e-05	1.799512e+00	2.089020e+00
1.998999999999997e-05	1.806055e+00	2.087059e+00
1.999999999999997e-05	1.807363e+00	2.086667e+00
2.001000000000000e-05	1.808670e+00	2.086274e+00
2.001004399841940e-05	1.808676e+00	2.086273e+00
2.001013199525820e-05	1.808687e+00	2.086269e+00
2.001022757411030e-05	1.808700e+00	2.086266e+00
2.001032032242806e-05	1.808712e+00	2.086262e+00
2.001050581906358e-05	1.808736e+00	2.086255e+00
2.001087681233460e-05	1.808785e+00	2.086240e+00
2.001153821680064e-05	1.808871e+00	2.086214e+00
2.001244656723976e-05	1.808990e+00	2.086178e+00
2.001377163441166e-05	1.809163e+00	2.086125e+00
2.001555149590841e-05	1.809396e+00	2.086056e+00
2.001703606607642e-05	1.809590e+00	2.086008e+00
2.001821197382518e-05	1.809743e+00	2.085989e+00
2.001844909533704e-05	1.809774e+00	2.085993e+00
2.001892333836075e-05	1.809836e+00	2.086014e+00
2.001948729763274e-05	1.809910e+00	2.086059e+00
2.001969232525159e-05	1.809937e+00	2.086080e+00
2.002000000000000e-05	1.809977e+00	2.086118e+00
2.002006719335007e-05	1.809986e+00	2.086127e+00
2.002009625409992e-05	1.809990e+00	2.086131e+00
2.002011595665007e-05	1.809992e+00	2.086133e+00
2.002012330894291e-05	1.809993e+00	2.086134e+00
2.002013005481379e-05	1.809994e+00	2.086135e+00
2.002013246902236e-05	1.809994e+00	2.086136e+00
2.002013410534922e-05	1.809995e+00	2.086136e+00
2.002013547943959e-05	1.809995e+00	2.086136e+00
2.002013696290156e-05	1.809995e+00	2.086136e+00
2.002013955793663e-05	1.809995e+00	2.086137e+00
2.002014474800676e-05	1.809996e+00	2.086138e+00
2.002015512814702e-05	1.809997e+00	2.086139e+00
2.002017588842756e-05	1.810000e+00	2.086142e+00
2.002021740898862e-05	1.810005e+00	2.086149e+00
2.002026847278208e-05	1.810012e+00	2.086158e+00
2.002031771898196e-05	1.810019e+00	2.086166e+00
2.002036702787345e-05	1.810025e+00	2.086175e+00
2.002043524648584e-05	1.810034e+00	2.086187e+00
2.002053679895819e-05	1.810047e+00	2.086205e+00
2.002068131533135e-05	1.810066e+00	2.086231e+00
2.002089763026273e-05	1.810094e+00	2.086272e+00
2.002123533917527e-05	1.810138e+00	2.086336e+00
2.002184879793283e-05	1.810219e+00	2.086457e+00
2.002279491054113e-05	1.810342e+00	2.086651e+00
2.002332041566438e-05	1.810411e+00	2.086763e+00
2.002365515977393e-05	1.810455e+00	2.086836e+00
2.002399434428163e-05	1.810499e+00	2.086910e+00
2.002414762803528e-05	1.810519e+00	2.086944e+00
2.002440394857701e-05	1.810553e+00	2.087001e+00
2.002480885658919e-05	1.810606e+00	2.087090e+00
2.002524757458232e-05	1.810663e+00	2.087187e+00
2.002591433535818e-05	1.810750e+00	2.087334e+00
2.002659458670040e-05	1.810839e+00	2.087485e+00
2.002763139130139e-05	1.810975e+00	2.087714e+00
2.002867316245617e-05	1.811111e+00	2.087945e+00
2.003021435213295e-05	1.811313e+00	2.088286e+00
2.003182862773088e-05	1.811524e+00	2.088643e+00
2.003415845196397e-05	1.811829e+00	2.089159e+00
2.003670631928767e-05	1.812162e+00	2.089724e+00
2.004086880243483e-05	1.812707e+00	2.090646e+00
2.004486517940748e-05	1.813231e+00	2.091531e+00
2.005285793335278e-05	1.814279e+00	2.093302e+00
2.006206571333363e-05	1.815488e+00	2.095342e+00
2.008048127329536e-05	1.817909e+00	2.099421e+00
2.010598466739128e-05	1.821271e+00	2.105070e+00
2.015699145558313e-05	1.828031e+00	2.116364e+00
2.025900503196683e-05	1.841690e+00	2.138937e+00
2.046303218473423e-05	1.869557e+00	2.184031e+00
2.087108649026903e-05	1.927484e+00	2.273991e+00
2.168719510133863e-05	2.050251e+00	2.453157e+00
2.268719510133863e-05	2.211842e+00	2.671395e+00
2.368719510133863e-05	2.384257e+00	2.888304e+00
